T1EB4 10224:890 SEGGER J-Link V6.52 Log File (0001ms, 66959ms total)
T1EB4 10224:890 DLL Compiled: Sep 27 2019 17:50:11 (0001ms, 66959ms total)
T1EB4 10224:890 Logging started @ 2019-10-02 11:07 (0001ms, 66959ms total)
T1EB4 10224:891 JLINK_SetWarnOutHandler(...) (0000ms, 66959ms total)
T1EB4 10224:891 JLINK_OpenEx(...)
Firmware: J-Link EDU Mini V1 compiled Aug 27 2019 09:26:01
Hardware: V1.00
S/N: 801003155
Feature(s): GDB, FlashBP
TELNET listener socket opened on port 19021WEBSRV 
Starting webserver (0057ms, 67016ms total)
T1EB4 10224:891 WEBSRV Webserver running on local port 19081 (0057ms, 67016ms total)
T1EB4 10224:891   returns O.K. (0057ms, 67016ms total)
T1EB4 10224:948 JLINK_GetEmuCaps()  returns 0xB8EA5A33 (0000ms, 67016ms total)
T1EB4 10224:948 JLINK_TIF_GetAvailable(...) (0001ms, 67017ms total)
T1EB4 10224:949 JLINK_SetErrorOutHandler(...) (0000ms, 67017ms total)
T1EB4 10224:949 JLINK_ExecCommand("ProjectFile = "C:\Users\zyCrisis\×ÀÃæ\stm32_nv\MDK-ARM\JLinkSettings.ini"", ...).   returns 0x00 (0003ms, 67020ms total)
T1EB4 10224:953 JLINK_ExecCommand("Device = STM32F407ZETx", ...). Device "STM32F407ZE" selected.  returns 0x00 (0001ms, 67021ms total)
T1EB4 10224:954 JLINK_ExecCommand("DisableConnectionTimeout", ...).   returns 0x01 (0000ms, 67021ms total)
T1EB4 10224:954 JLINK_GetHardwareVersion()  returns 0x2710 (0000ms, 67021ms total)
T1EB4 10224:954 JLINK_GetDLLVersion()  returns 65200 (0000ms, 67021ms total)
T1EB4 10224:954 JLINK_GetFirmwareString(...)
T1EB4 10224:954 (0000ms, 67021ms total)
T1EB4 10224:954 JLINK_GetDLLVersion()  returns 65200 (0000ms, 67021ms total)
T1EB4 10224:954 JLINK_GetCompileDateTime() (0000ms, 67021ms total)
T1EB4 10224:954 JLINK_GetFirmwareString(...)
T1EB4 10224:954 (0000ms, 67021ms total)
T1EB4 10224:954 JLINK_GetHardwareVersion()  returns 0x2710 (0001ms, 67022ms total)
T1EB4 10224:955 JLINK_TIF_Select(JLINKARM_TIF_SWD)  returns 0x00 (0002ms, 67024ms total)
T1EB4 10224:957 JLINK_SetSpeed(5000) (0000ms, 67024ms total)
T1EB4 10224:957 JLINK_GetId()Found SW-DP with ID 0x2BA01477Found SW-DP with ID 0x2BA01477Scanning AP map to find all available APsAP[1]: Stopped AP scan as end of AP map has been reachedAP[0]: AHB-AP (IDR: 0x24770011)Iterating through AP map to find AHB-AP to useAP[0]: Core foundAP[0]: AHB-AP ROM base: 0xE00FF000CPUID register: 0x410FC241. Implementer code: 0x41 (ARM)Found Cortex-M4 r0p1, Little endian. -- Max. mem block: 0x000015D0 -- CPU_ReadMem(4 bytes @ 0xE000EDF0)
 -- CPU_ReadMem(4 bytes @ 0xE0002000)FPUnit: 6 code (BP) slots and 2 literal slots -- CPU_ReadMem(4 bytes @ 0xE000EDFC) -- CPU_ReadMem(4 bytes @ 0xE0001000) -- CPU_WriteMem(4 bytes @ 0xE0001000) -- CPU_ReadMem(4 bytes @ 0xE000ED88) -- CPU_WriteMem(4 bytes @ 0xE000ED88) -- CPU_ReadMem(4 bytes @ 0xE000ED88) -- CPU_WriteMem(4 bytes @ 0xE000ED88)CoreSight components:ROMTbl[0] @ E00FF000 -- CPU_ReadMem(16 bytes @ 0xE00FF000) -- CPU_ReadMem(16 bytes @ 0xE000EFF0) -- CPU_ReadMem(16 bytes @ 0xE000EFE0)
ROMTbl[0][0]: E000E000, CID: B105E00D, PID: 000BB00C SCS-M7 -- CPU_ReadMem(16 bytes @ 0xE0001FF0) -- CPU_ReadMem(16 bytes @ 0xE0001FE0)ROMTbl[0][1]: E0001000, CID: B105E00D, PID: 003BB002 DWT -- CPU_ReadMem(16 bytes @ 0xE0002FF0) -- CPU_ReadMem(16 bytes @ 0xE0002FE0)ROMTbl[0][2]: E0002000, CID: B105E00D, PID: 002BB003 FPB -- CPU_ReadMem(16 bytes @ 0xE0000FF0) -- CPU_ReadMem(16 bytes @ 0xE0000FE0)ROMTbl[0][3]: E0000000, CID: B105E00D, PID: 003BB001 ITM -- CPU_ReadMem(16 bytes @ 0xE00FF010)
 -- CPU_ReadMem(16 bytes @ 0xE0040FF0) -- CPU_ReadMem(16 bytes @ 0xE0040FE0)ROMTbl[0][4]: E0040000, CID: B105900D, PID: 000BB9A1 TPIU -- CPU_ReadMem(16 bytes @ 0xE0041FF0) -- CPU_ReadMem(16 bytes @ 0xE0041FE0)ROMTbl[0][5]: E0041000, CID: B105900D, PID: 000BB925 ETM  returns 0x2BA01477 (0154ms, 67178ms total)
T1EB4 10225:111 JLINK_GetDLLVersion()  returns 65200 (0000ms, 67178ms total)
T1EB4 10225:111 JLINK_CORE_GetFound()  returns 0xE0000FF (0000ms, 67178ms total)
T1EB4 10225:111 JLINK_GetDebugInfo(0x100 = JLINKARM_ROM_TABLE_ADDR_INDEX) -- Value=0xE00FF000  returns 0x00 (0000ms, 67178ms total)
T1EB4 10225:111 JLINK_GetDebugInfo(0x100 = JLINKARM_ROM_TABLE_ADDR_INDEX) -- Value=0xE00FF000  returns 0x00 (0000ms, 67178ms total)
T1EB4 10225:111 JLINK_GetDebugInfo(0x101 = JLINKARM_DEBUG_INFO_ETM_ADDR_INDEX) -- Value=0xE0041000  returns 0x00 (0000ms, 67178ms total)
T1EB4 10225:111 JLINK_ReadMemEx(0xE0041FD0, 0x0020 Bytes, ..., Flags = 0x02000004) -- CPU_ReadMem(32 bytes @ 0xE0041FD0) - Data: 04 00 00 00 00 00 00 00 00 00 00 00 00 00 00 00 ...  returns 0x20 (0000ms, 67178ms total)
T1EB4 10225:111 JLINK_GetDebugInfo(0x102 = JLINKARM_DEBUG_INFO_MTB_ADDR_INDEX) -- Value=0x00000000  returns 0x00 (0000ms, 67178ms total)
T1EB4 10225:111 JLINK_GetDebugInfo(0x103 = JLINKARM_DEBUG_INFO_TPIU_ADDR_INDEX) -- Value=0xE0040000  returns 0x00 (0000ms, 67178ms total)
T1EB4 10225:111 JLINK_GetDebugInfo(0x104 = JLINKARM_DEBUG_INFO_ITM_ADDR_INDEX) -- Value=0xE0000000  returns 0x00 (0001ms, 67179ms total)
T1EB4 10225:112 JLINK_GetDebugInfo(0x105 = JLINKARM_DEBUG_INFO_DWT_ADDR_INDEX) -- Value=0xE0001000  returns 0x00 (0000ms, 67179ms total)
T1EB4 10225:112 JLINK_GetDebugInfo(0x106 = JLINKARM_DEBUG_INFO_FPB_ADDR_INDEX) -- Value=0xE0002000  returns 0x00 (0000ms, 67179ms total)
T1EB4 10225:112 JLINK_GetDebugInfo(0x107 = JLINKARM_DEBUG_INFO_NVIC_ADDR_INDEX) -- Value=0xE000E000  returns 0x00 (0000ms, 67179ms total)
T1EB4 10225:112 JLINK_GetDebugInfo(0x10C = JLINKARM_DEBUG_INFO_DBG_ADDR_INDEX) -- Value=0xE000EDF0  returns 0x00 (0000ms, 67179ms total)
T1EB4 10225:112 JLINK_GetDebugInfo(0x01 = Unknown) -- Value=0x00000001  returns 0x00 (0000ms, 67179ms total)
T1EB4 10225:112 JLINK_ReadMemU32(0xE000ED00, 0x0001 Items, ...) -- CPU_ReadMem(4 bytes @ 0xE000ED00) - Data: 41 C2 0F 41  returns 1 (0000ms, 67179ms total)
T1EB4 10225:112 JLINK_GetDebugInfo(0x10F = JLINKARM_DEBUG_INFO_HAS_CORTEX_M_SECURITY_EXT_INDEX) -- Value=0x00000000  returns 0x00 (0000ms, 67179ms total)
T1EB4 10225:112 JLINK_SetResetType(JLINKARM_CM3_RESET_TYPE_NORMAL)  returns JLINKARM_CM3_RESET_TYPE_NORMAL (0000ms, 67179ms total)
T1EB4 10225:112 JLINK_Reset() -- CPU is running -- CPU_WriteMem(4 bytes @ 0xE000EDF0) -- CPU is running -- CPU_WriteMem(4 bytes @ 0xE000EDFC)Reset: Halt core after reset via DEMCR.VC_CORERESET.Reset: Reset device via AIRCR.SYSRESETREQ. -- CPU is running -- CPU_WriteMem(4 bytes @ 0xE000ED0C) -- CPU_ReadMem(4 bytes @ 0xE000EDF0) -- CPU_ReadMem(4 bytes @ 0xE000EDF0) -- CPU is running -- CPU_WriteMem(4 bytes @ 0xE000EDF0) -- CPU is running -- CPU_WriteMem(4 bytes @ 0xE000EDFC)
 -- CPU_ReadMem(4 bytes @ 0xE000EDF0) -- CPU_WriteMem(4 bytes @ 0xE0002000) -- CPU_ReadMem(4 bytes @ 0xE000EDFC) -- CPU_ReadMem(4 bytes @ 0xE0001000) (0072ms, 67251ms total)
T1EB4 10225:185 JLINK_ReadReg(R15 (PC))  returns 0x08000228 (0000ms, 67251ms total)
T1EB4 10225:185 JLINK_ReadReg(XPSR)  returns 0x01000000 (0000ms, 67251ms total)
T1EB4 10225:185 JLINK_Halt()  returns 0x00 (0000ms, 67251ms total)
T1EB4 10225:185 JLINK_ReadMemU32(0xE000EDF0, 0x0001 Items, ...) -- CPU_ReadMem(4 bytes @ 0xE000EDF0) - Data: 03 00 03 00  returns 1 (0001ms, 67252ms total)
T1EB4 10225:186 JLINK_WriteU32(0xE000EDF0, 0xA05F0003) -- CPU_WriteMem(4 bytes @ 0xE000EDF0)  returns 0 (0001ms, 67253ms total)
T1EB4 10225:187 JLINK_WriteU32(0xE000EDFC, 0x01000000) -- CPU_WriteMem(4 bytes @ 0xE000EDFC)  returns 0 (0001ms, 67254ms total)
T1EB4 10225:188 JLINK_GetHWStatus(...)  returns 0x00 (0000ms, 67254ms total)
T1EB4 10225:189 JLINK_GetNumBPUnits(Type = 0xFFFFFF00)  returns 0x06 (0000ms, 67254ms total)
T1EB4 10225:189 JLINK_GetNumBPUnits(Type = 0xF0)  returns 0x2000 (0000ms, 67254ms total)
T1EB4 10225:189 JLINK_GetNumWPUnits()  returns 0x04 (0000ms, 67254ms total)
T1EB4 10225:189 JLINK_GetSpeed()  returns 0xFA0 (0000ms, 67254ms total)
T1EB4 10225:189 JLINK_ReadMemU32(0xE000E004, 0x0001 Items, ...) -- CPU_ReadMem(4 bytes @ 0xE000E004) - Data: 02 00 00 00  returns 1 (0001ms, 67255ms total)
T1EB4 10225:190 JLINK_ReadMemU32(0xE000E004, 0x0001 Items, ...) -- CPU_ReadMem(4 bytes @ 0xE000E004) - Data: 02 00 00 00  returns 1 (0001ms, 67256ms total)
T1EB4 10225:191 JLINK_WriteMemEx(0xE0001000, 0x001C Bytes, ..., Flags = 0x02000004) - Data: 01 00 00 00 00 00 00 00 00 00 00 00 00 00 00 00 ... -- CPU_WriteMem(28 bytes @ 0xE0001000)  returns 0x1C (0002ms, 67258ms total)
T1EB4 10225:193 JLINK_ReadReg(R15 (PC))  returns 0x08000228 (0000ms, 67258ms total)
T1EB4 10225:193 JLINK_ReadReg(XPSR)  returns 0x01000000 (0000ms, 67258ms total)
T1EB4 10225:204 JLINK_ReadMemEx(0xE0001004, 0x0004 Bytes, ..., Flags = 0x02000000) - Data: 00 00 00 00  returns 0x04 (0000ms, 67258ms total)
T1EB4 10225:298 JLINK_SetResetType(JLINKARM_CM3_RESET_TYPE_NORMAL)  returns JLINKARM_CM3_RESET_TYPE_NORMAL (0000ms, 67258ms total)
T1EB4 10225:298 JLINK_Reset() -- CPU_WriteMem(4 bytes @ 0xE000EDF0) -- CPU_WriteMem(4 bytes @ 0xE000EDFC)Reset: Halt core after reset via DEMCR.VC_CORERESET.Reset: Reset device via AIRCR.SYSRESETREQ. -- CPU_WriteMem(4 bytes @ 0xE000ED0C) -- CPU_ReadMem(4 bytes @ 0xE000EDF0) -- CPU_ReadMem(4 bytes @ 0xE000EDF0) -- CPU_WriteMem(4 bytes @ 0xE000EDF0) -- CPU_WriteMem(4 bytes @ 0xE000EDFC) -- CPU_ReadMem(4 bytes @ 0xE000EDF0) -- CPU_WriteMem(4 bytes @ 0xE0002000) -- CPU_ReadMem(4 bytes @ 0xE000EDFC)
 -- CPU_ReadMem(4 bytes @ 0xE0001000) (0073ms, 67331ms total)
T1EB4 10225:372 JLINK_ReadReg(R15 (PC))  returns 0x08000228 (0000ms, 67331ms total)
T1EB4 10225:372 JLINK_ReadReg(XPSR)  returns 0x01000000 (0000ms, 67331ms total)
T1EB4 10225:374 JLINK_ReadMemEx(0x08000228, 0x003C Bytes, ..., Flags = 0x02000000) -- CPU_ReadMem(128 bytes @ 0x08000200) -- Updating C cache (128 bytes @ 0x08000200) -- Read from C cache (60 bytes @ 0x08000228) - Data: 09 48 80 47 09 48 00 47 FE E7 FE E7 FE E7 FE E7 ...  returns 0x3C (0002ms, 67333ms total)
T1EB4 10227:164 JLINK_ReadReg(R0)  returns 0x00000000 (0001ms, 67334ms total)
T1EB4 10227:165 JLINK_ReadReg(R1)  returns 0x00000000 (0000ms, 67334ms total)
T1EB4 10227:165 JLINK_ReadReg(R2)  returns 0x00000000 (0000ms, 67334ms total)
T1EB4 10227:165 JLINK_ReadReg(R3)  returns 0x00000000 (0000ms, 67334ms total)
T1EB4 10227:165 JLINK_ReadReg(R4)  returns 0x00000000 (0000ms, 67334ms total)
T1EB4 10227:165 JLINK_ReadReg(R5)  returns 0x00000000 (0000ms, 67334ms total)
T1EB4 10227:165 JLINK_ReadReg(R6)  returns 0x00000000 (0000ms, 67334ms total)
T1EB4 10227:165 JLINK_ReadReg(R7)  returns 0x00000000 (0000ms, 67334ms total)
T1EB4 10227:165 JLINK_ReadReg(R8)  returns 0x00000000 (0000ms, 67334ms total)
T1EB4 10227:165 JLINK_ReadReg(R9)  returns 0x00000000 (0000ms, 67334ms total)
T1EB4 10227:165 JLINK_ReadReg(R10)  returns 0x00000000 (0000ms, 67334ms total)
T1EB4 10227:165 JLINK_ReadReg(R11)  returns 0x00000000 (0000ms, 67334ms total)
T1EB4 10227:165 JLINK_ReadReg(R12)  returns 0x00000000 (0000ms, 67334ms total)
T1EB4 10227:165 JLINK_ReadReg(R13 (SP))  returns 0x20000EB8 (0000ms, 67334ms total)
T1EB4 10227:165 JLINK_ReadReg(R14)  returns 0xFFFFFFFF (0000ms, 67334ms total)
T1EB4 10227:165 JLINK_ReadReg(R15 (PC))  returns 0x08000228 (0000ms, 67334ms total)
T1EB4 10227:165 JLINK_ReadReg(XPSR)  returns 0x01000000 (0000ms, 67334ms total)
T1EB4 10227:165 JLINK_ReadReg(MSP)  returns 0x20000EB8 (0000ms, 67334ms total)
T1EB4 10227:165 JLINK_ReadReg(PSP)  returns 0x00000000 (0000ms, 67334ms total)
T1EB4 10227:165 JLINK_ReadReg(CFBP)  returns 0x00000000 (0000ms, 67334ms total)
T1EB4 10227:165 JLINK_ReadReg(FPSCR)  returns 0x00000000 (0006ms, 67340ms total)
T1EB4 10227:171 JLINK_ReadReg(FPS0)  returns 0x00000000 (0000ms, 67340ms total)
T1EB4 10227:171 JLINK_ReadReg(FPS1)  returns 0x00000000 (0000ms, 67340ms total)
T1EB4 10227:171 JLINK_ReadReg(FPS2)  returns 0x00000000 (0000ms, 67340ms total)
T1EB4 10227:171 JLINK_ReadReg(FPS3)  returns 0x00000000 (0000ms, 67340ms total)
T1EB4 10227:171 JLINK_ReadReg(FPS4)  returns 0x00000000 (0000ms, 67340ms total)
T1EB4 10227:171 JLINK_ReadReg(FPS5)  returns 0x00000000 (0000ms, 67340ms total)
T1EB4 10227:171 JLINK_ReadReg(FPS6)  returns 0x00000000 (0000ms, 67340ms total)
T1EB4 10227:171 JLINK_ReadReg(FPS7)  returns 0x00000000 (0000ms, 67340ms total)
T1EB4 10227:171 JLINK_ReadReg(FPS8)  returns 0x00000000 (0000ms, 67340ms total)
T1EB4 10227:171 JLINK_ReadReg(FPS9)  returns 0x00000000 (0000ms, 67340ms total)
T1EB4 10227:171 JLINK_ReadReg(FPS10)  returns 0x00000000 (0000ms, 67340ms total)
T1EB4 10227:171 JLINK_ReadReg(FPS11)  returns 0x00000000 (0000ms, 67340ms total)
T1EB4 10227:171 JLINK_ReadReg(FPS12)  returns 0x00000000 (0000ms, 67340ms total)
T1EB4 10227:171 JLINK_ReadReg(FPS13)  returns 0x00000000 (0000ms, 67340ms total)
T1EB4 10227:171 JLINK_ReadReg(FPS14)  returns 0x00000000 (0000ms, 67340ms total)
T1EB4 10227:171 JLINK_ReadReg(FPS15)  returns 0x00000000 (0000ms, 67340ms total)
T1EB4 10227:171 JLINK_ReadReg(FPS16)  returns 0x00000000 (0000ms, 67340ms total)
T1EB4 10227:171 JLINK_ReadReg(FPS17)  returns 0x00000000 (0000ms, 67340ms total)
T1EB4 10227:171 JLINK_ReadReg(FPS18)  returns 0x00000000 (0000ms, 67340ms total)
T1EB4 10227:171 JLINK_ReadReg(FPS19)  returns 0x00000000 (0000ms, 67340ms total)
T1EB4 10227:171 JLINK_ReadReg(FPS20)  returns 0x00000000 (0000ms, 67340ms total)
T1EB4 10227:171 JLINK_ReadReg(FPS21)  returns 0x00000000 (0000ms, 67340ms total)
T1EB4 10227:171 JLINK_ReadReg(FPS22)  returns 0x00000000 (0000ms, 67340ms total)
T1EB4 10227:171 JLINK_ReadReg(FPS23)  returns 0x00000000 (0000ms, 67340ms total)
T1EB4 10227:171 JLINK_ReadReg(FPS24)  returns 0x00000000 (0000ms, 67340ms total)
T1EB4 10227:171 JLINK_ReadReg(FPS25)  returns 0x00000000 (0000ms, 67340ms total)
T1EB4 10227:171 JLINK_ReadReg(FPS26)  returns 0x00000000 (0000ms, 67340ms total)
T1EB4 10227:171 JLINK_ReadReg(FPS27)  returns 0x00000000 (0000ms, 67340ms total)
T1EB4 10227:171 JLINK_ReadReg(FPS28)  returns 0x00000000 (0000ms, 67340ms total)
T1EB4 10227:171 JLINK_ReadReg(FPS29)  returns 0x00000000 (0000ms, 67340ms total)
T1EB4 10227:171 JLINK_ReadReg(FPS30)  returns 0x00000000 (0000ms, 67340ms total)
T1EB4 10227:171 JLINK_ReadReg(FPS31)  returns 0x00000000 (0000ms, 67340ms total)
T1EB4 10227:186 JLINK_ReadMemEx(0x20000000, 0x0004 Bytes, ..., Flags = 0x02000000) -- CPU_ReadMem(64 bytes @ 0x20000000) -- Updating C cache (64 bytes @ 0x20000000) -- Read from C cache (4 bytes @ 0x20000000) - Data: FE E7 0A E0  returns 0x04 (0001ms, 67341ms total)
T1EB4 10227:189 JLINK_ReadMemEx(0x20000004, 0x0004 Bytes, ..., Flags = 0x02000000) -- Read from C cache (4 bytes @ 0x20000004) - Data: 0D 78 2D 06  returns 0x04 (0000ms, 67341ms total)
T3EE8 10227:213 JLINK_ReadMemEx(0x08000228, 0x0002 Bytes, ..., Flags = 0x02000000) -- Read from C cache (2 bytes @ 0x08000228) - Data: 09 48  returns 0x02 (0000ms, 67341ms total)
T3EE8 10227:213 JLINK_SetBPEx(Addr = 0x08001818, Type = 0xFFFFFFF2)  returns 0x00000001 (0000ms, 67341ms total)
T3EE8 10227:213 JLINK_SetBPEx(Addr = 0x08000498, Type = 0xFFFFFFF2)  returns 0x00000002 (0000ms, 67341ms total)
T3EE8 10227:213 JLINK_Go() -- CPU_WriteMem(4 bytes @ 0xE0002000) -- CPU_WriteMem(4 bytes @ 0xE0002000) -- CPU_ReadMem(4 bytes @ 0xE0001000) -- CPU_WriteMem(4 bytes @ 0xE0002008) -- CPU_WriteMem(4 bytes @ 0xE000200C) -- CPU_WriteMem(4 bytes @ 0xE0002010) -- CPU_WriteMem(4 bytes @ 0xE0002014) -- CPU_WriteMem(4 bytes @ 0xE0002018) -- CPU_WriteMem(4 bytes @ 0xE000201C) -- CPU_WriteMem(4 bytes @ 0xE0001004) (0006ms, 67347ms total)
T3EE8 10227:320 JLINK_IsHalted()  returns TRUE (0003ms, 67350ms total)
T3EE8 10227:323 JLINK_Halt()  returns 0x00 (0000ms, 67347ms total)
T3EE8 10227:323 JLINK_IsHalted()  returns TRUE (0000ms, 67347ms total)
T3EE8 10227:323 JLINK_IsHalted()  returns TRUE (0000ms, 67347ms total)
T3EE8 10227:323 JLINK_IsHalted()  returns TRUE (0000ms, 67347ms total)
T3EE8 10227:323 JLINK_ReadReg(R15 (PC))  returns 0x08001818 (0000ms, 67347ms total)
T3EE8 10227:323 JLINK_ReadReg(XPSR)  returns 0x21000000 (0000ms, 67347ms total)
T3EE8 10227:323 JLINK_ClrBPEx(BPHandle = 0x00000001)  returns 0x00 (0000ms, 67347ms total)
T3EE8 10227:323 JLINK_ClrBPEx(BPHandle = 0x00000002)  returns 0x00 (0000ms, 67347ms total)
T3EE8 10227:323 JLINK_ReadMemU32(0xE000ED30, 0x0001 Items, ...) -- CPU_ReadMem(4 bytes @ 0xE000ED30) - Data: 02 00 00 00  returns 1 (0001ms, 67348ms total)
T3EE8 10227:324 JLINK_ReadMemU32(0xE0001028, 0x0001 Items, ...) -- CPU_ReadMem(4 bytes @ 0xE0001028) - Data: 00 00 00 00  returns 1 (0000ms, 67348ms total)
T3EE8 10227:324 JLINK_ReadMemU32(0xE0001038, 0x0001 Items, ...) -- CPU_ReadMem(4 bytes @ 0xE0001038) - Data: 00 02 00 00  returns 1 (0001ms, 67349ms total)
T3EE8 10227:325 JLINK_ReadMemU32(0xE0001048, 0x0001 Items, ...) -- CPU_ReadMem(4 bytes @ 0xE0001048) - Data: 00 00 00 00  returns 1 (0001ms, 67350ms total)
T3EE8 10227:326 JLINK_ReadMemU32(0xE0001058, 0x0001 Items, ...) -- CPU_ReadMem(4 bytes @ 0xE0001058) - Data: 00 00 00 00  returns 1 (0000ms, 67350ms total)
T3EE8 10227:326 JLINK_ReadReg(R0)  returns 0x200008B8 (0000ms, 67350ms total)
T3EE8 10227:326 JLINK_ReadReg(R1)  returns 0x20000AB8 (0000ms, 67350ms total)
T3EE8 10227:326 JLINK_ReadReg(R2)  returns 0x20000AB8 (0000ms, 67350ms total)
T3EE8 10227:326 JLINK_ReadReg(R3)  returns 0x20000AB8 (0000ms, 67350ms total)
T3EE8 10227:326 JLINK_ReadReg(R4)  returns 0x00000000 (0000ms, 67350ms total)
T3EE8 10227:326 JLINK_ReadReg(R5)  returns 0x20000858 (0000ms, 67350ms total)
T3EE8 10227:326 JLINK_ReadReg(R6)  returns 0x00000000 (0000ms, 67350ms total)
T3EE8 10227:326 JLINK_ReadReg(R7)  returns 0x00000000 (0000ms, 67350ms total)
T3EE8 10227:326 JLINK_ReadReg(R8)  returns 0x00000000 (0000ms, 67350ms total)
T3EE8 10227:326 JLINK_ReadReg(R9)  returns 0x00000000 (0000ms, 67350ms total)
T3EE8 10227:326 JLINK_ReadReg(R10)  returns 0x08001870 (0000ms, 67350ms total)
T3EE8 10227:326 JLINK_ReadReg(R11)  returns 0x00000000 (0000ms, 67350ms total)
T3EE8 10227:326 JLINK_ReadReg(R12)  returns 0x20000898 (0000ms, 67350ms total)
T3EE8 10227:327 JLINK_ReadReg(R13 (SP))  returns 0x20000EB8 (0000ms, 67351ms total)
T3EE8 10227:327 JLINK_ReadReg(R14)  returns 0x08000217 (0000ms, 67351ms total)
T3EE8 10227:327 JLINK_ReadReg(R15 (PC))  returns 0x08001818 (0000ms, 67351ms total)
T3EE8 10227:327 JLINK_ReadReg(XPSR)  returns 0x21000000 (0000ms, 67351ms total)
T3EE8 10227:327 JLINK_ReadReg(MSP)  returns 0x20000EB8 (0000ms, 67351ms total)
T3EE8 10227:327 JLINK_ReadReg(PSP)  returns 0x00000000 (0000ms, 67351ms total)
T3EE8 10227:327 JLINK_ReadReg(CFBP)  returns 0x04000000 (0000ms, 67351ms total)
T3EE8 10227:327 JLINK_ReadReg(FPSCR)  returns 0x03000000 (0006ms, 67357ms total)
T3EE8 10227:333 JLINK_ReadReg(FPS0)  returns 0x00000000 (0000ms, 67357ms total)
T3EE8 10227:333 JLINK_ReadReg(FPS1)  returns 0x00000000 (0000ms, 67357ms total)
T3EE8 10227:333 JLINK_ReadReg(FPS2)  returns 0x00000000 (0000ms, 67357ms total)
T3EE8 10227:333 JLINK_ReadReg(FPS3)  returns 0x00000000 (0000ms, 67357ms total)
T3EE8 10227:333 JLINK_ReadReg(FPS4)  returns 0x00000000 (0000ms, 67357ms total)
T3EE8 10227:333 JLINK_ReadReg(FPS5)  returns 0x00000000 (0000ms, 67357ms total)
T3EE8 10227:333 JLINK_ReadReg(FPS6)  returns 0x00000000 (0000ms, 67357ms total)
T3EE8 10227:333 JLINK_ReadReg(FPS7)  returns 0x00000000 (0000ms, 67357ms total)
T3EE8 10227:333 JLINK_ReadReg(FPS8)  returns 0x00000000 (0000ms, 67357ms total)
T3EE8 10227:333 JLINK_ReadReg(FPS9)  returns 0x00000000 (0000ms, 67357ms total)
T3EE8 10227:333 JLINK_ReadReg(FPS10)  returns 0x00000000 (0000ms, 67357ms total)
T3EE8 10227:333 JLINK_ReadReg(FPS11)  returns 0x00000000 (0000ms, 67357ms total)
T3EE8 10227:333 JLINK_ReadReg(FPS12)  returns 0x00000000 (0000ms, 67357ms total)
T3EE8 10227:333 JLINK_ReadReg(FPS13)  returns 0x00000000 (0000ms, 67357ms total)
T3EE8 10227:333 JLINK_ReadReg(FPS14)  returns 0x00000000 (0000ms, 67357ms total)
T3EE8 10227:333 JLINK_ReadReg(FPS15)  returns 0x00000000 (0000ms, 67357ms total)
T3EE8 10227:333 JLINK_ReadReg(FPS16)  returns 0x00000000 (0000ms, 67357ms total)
T3EE8 10227:333 JLINK_ReadReg(FPS17)  returns 0x00000000 (0000ms, 67357ms total)
T3EE8 10227:333 JLINK_ReadReg(FPS18)  returns 0x00000000 (0000ms, 67357ms total)
T3EE8 10227:333 JLINK_ReadReg(FPS19)  returns 0x00000000 (0000ms, 67357ms total)
T3EE8 10227:333 JLINK_ReadReg(FPS20)  returns 0x00000000 (0000ms, 67357ms total)
T3EE8 10227:333 JLINK_ReadReg(FPS21)  returns 0x00000000 (0000ms, 67357ms total)
T3EE8 10227:333 JLINK_ReadReg(FPS22)  returns 0x00000000 (0000ms, 67357ms total)
T3EE8 10227:333 JLINK_ReadReg(FPS23)  returns 0x00000000 (0000ms, 67357ms total)
T3EE8 10227:334 JLINK_ReadReg(FPS24)  returns 0x00000000 (0000ms, 67357ms total)
T3EE8 10227:334 JLINK_ReadReg(FPS25)  returns 0x00000000 (0000ms, 67357ms total)
T3EE8 10227:334 JLINK_ReadReg(FPS26)  returns 0x00000000 (0000ms, 67357ms total)
T3EE8 10227:334 JLINK_ReadReg(FPS27)  returns 0x00000000 (0000ms, 67357ms total)
T3EE8 10227:334 JLINK_ReadReg(FPS28)  returns 0x00000000 (0000ms, 67357ms total)
T3EE8 10227:334 JLINK_ReadReg(FPS29)  returns 0x00000000 (0000ms, 67357ms total)
T3EE8 10227:334 JLINK_ReadReg(FPS30)  returns 0x00000000 (0000ms, 67357ms total)
T3EE8 10227:334 JLINK_ReadReg(FPS31)  returns 0x00000000 (0000ms, 67357ms total)
T1EB4 10227:338 JLINK_ReadMemU32(0xE0001004, 0x0001 Items, ...) -- CPU_ReadMem(4 bytes @ 0xE0001004) - Data: 53 08 00 00  returns 1 (0001ms, 67358ms total)
T1EB4 10227:339 JLINK_ReadMemEx(0x20000000, 0x0004 Bytes, ..., Flags = 0x02000000) -- CPU_ReadMem(64 bytes @ 0x20000000) -- Updating C cache (64 bytes @ 0x20000000) -- Read from C cache (4 bytes @ 0x20000000) - Data: 00 00 00 00  returns 0x04 (0001ms, 67359ms total)
T1EB4 10227:340 JLINK_ReadMemEx(0x20000004, 0x0004 Bytes, ..., Flags = 0x02000000) -- Read from C cache (4 bytes @ 0x20000004) - Data: 00 00 00 00  returns 0x04 (0000ms, 67359ms total)
T3EE8 10228:678 JLINK_ReadMemEx(0x08001818, 0x0002 Bytes, ..., Flags = 0x02000000) -- CPU_ReadMem(64 bytes @ 0x08001800) -- Updating C cache (64 bytes @ 0x08001800) -- Read from C cache (2 bytes @ 0x08001818) - Data: FF F7  returns 0x02 (0001ms, 67360ms total)
T3EE8 10228:679 JLINK_SetBPEx(Addr = 0x08000498, Type = 0xFFFFFFF2)  returns 0x00000003 (0000ms, 67360ms total)
T3EE8 10228:679 JLINK_Go() -- CPU_WriteMem(4 bytes @ 0xE0002000) -- CPU_ReadMem(4 bytes @ 0xE0001000) -- CPU_WriteMem(4 bytes @ 0xE0002008) -- CPU_WriteMem(4 bytes @ 0xE000200C) (0003ms, 67363ms total)
T3EE8 10228:783 JLINK_IsHalted()  returns TRUE (0004ms, 67367ms total)
T3EE8 10228:787 JLINK_Halt()  returns 0x00 (0000ms, 67363ms total)
T3EE8 10228:787 JLINK_IsHalted()  returns TRUE (0001ms, 67364ms total)
T3EE8 10228:788 JLINK_IsHalted()  returns TRUE (0000ms, 67363ms total)
T3EE8 10228:788 JLINK_IsHalted()  returns TRUE (0000ms, 67363ms total)
T3EE8 10228:788 JLINK_ReadReg(R15 (PC))  returns 0x08000498 (0000ms, 67363ms total)
T3EE8 10228:788 JLINK_ReadReg(XPSR)  returns 0x21000000 (0000ms, 67363ms total)
T3EE8 10228:788 JLINK_ClrBPEx(BPHandle = 0x00000003)  returns 0x00 (0000ms, 67363ms total)
T3EE8 10228:788 JLINK_ReadMemU32(0xE000ED30, 0x0001 Items, ...) -- CPU_ReadMem(4 bytes @ 0xE000ED30) - Data: 02 00 00 00  returns 1 (0001ms, 67364ms total)
T3EE8 10228:789 JLINK_ReadMemU32(0xE0001028, 0x0001 Items, ...) -- CPU_ReadMem(4 bytes @ 0xE0001028) - Data: 00 00 00 00  returns 1 (0001ms, 67365ms total)
T3EE8 10228:790 JLINK_ReadMemU32(0xE0001038, 0x0001 Items, ...) -- CPU_ReadMem(4 bytes @ 0xE0001038) - Data: 00 02 00 00  returns 1 (0001ms, 67366ms total)
T3EE8 10228:792 JLINK_ReadMemU32(0xE0001048, 0x0001 Items, ...) -- CPU_ReadMem(4 bytes @ 0xE0001048) - Data: 00 00 00 00  returns 1 (0001ms, 67367ms total)
T3EE8 10228:793 JLINK_ReadMemU32(0xE0001058, 0x0001 Items, ...) -- CPU_ReadMem(4 bytes @ 0xE0001058) - Data: 00 00 00 00  returns 1 (0001ms, 67368ms total)
T3EE8 10228:794 JLINK_ReadReg(R0)  returns 0x0000001D (0000ms, 67368ms total)
T3EE8 10228:794 JLINK_ReadReg(R1)  returns 0x20000004 (0000ms, 67368ms total)
T3EE8 10228:794 JLINK_ReadReg(R2)  returns 0x0806001D (0000ms, 67368ms total)
T3EE8 10228:794 JLINK_ReadReg(R3)  returns 0x20000E88 (0000ms, 67368ms total)
T3EE8 10228:794 JLINK_ReadReg(R4)  returns 0x080004CC (0000ms, 67368ms total)
T3EE8 10228:794 JLINK_ReadReg(R5)  returns 0x0000000D (0000ms, 67368ms total)
T3EE8 10228:794 JLINK_ReadReg(R6)  returns 0x00000000 (0001ms, 67369ms total)
T3EE8 10228:795 JLINK_ReadReg(R7)  returns 0x00000000 (0000ms, 67369ms total)
T3EE8 10228:795 JLINK_ReadReg(R8)  returns 0x00000000 (0000ms, 67369ms total)
T3EE8 10228:795 JLINK_ReadReg(R9)  returns 0x00000000 (0000ms, 67369ms total)
T3EE8 10228:795 JLINK_ReadReg(R10)  returns 0x08001870 (0000ms, 67369ms total)
T3EE8 10228:795 JLINK_ReadReg(R11)  returns 0x00000000 (0000ms, 67369ms total)
T3EE8 10228:795 JLINK_ReadReg(R12)  returns 0x00000000 (0000ms, 67369ms total)
T3EE8 10228:795 JLINK_ReadReg(R13 (SP))  returns 0x20000EA8 (0000ms, 67369ms total)
T3EE8 10228:795 JLINK_ReadReg(R14)  returns 0x080007AB (0000ms, 67369ms total)
T3EE8 10228:795 JLINK_ReadReg(R15 (PC))  returns 0x08000498 (0000ms, 67369ms total)
T3EE8 10228:795 JLINK_ReadReg(XPSR)  returns 0x21000000 (0000ms, 67369ms total)
T3EE8 10228:795 JLINK_ReadReg(MSP)  returns 0x20000EA8 (0001ms, 67370ms total)
T3EE8 10228:796 JLINK_ReadReg(PSP)  returns 0x00000000 (0000ms, 67370ms total)
T3EE8 10228:796 JLINK_ReadReg(CFBP)  returns 0x04000000 (0000ms, 67370ms total)
T3EE8 10228:796 JLINK_ReadReg(FPSCR)  returns 0x03000000 (0006ms, 67376ms total)
T3EE8 10228:802 JLINK_ReadReg(FPS0)  returns 0x00000000 (0000ms, 67376ms total)
T3EE8 10228:802 JLINK_ReadReg(FPS1)  returns 0x00000000 (0000ms, 67376ms total)
T3EE8 10228:802 JLINK_ReadReg(FPS2)  returns 0x00000000 (0000ms, 67376ms total)
T3EE8 10228:802 JLINK_ReadReg(FPS3)  returns 0x00000000 (0000ms, 67376ms total)
T3EE8 10228:802 JLINK_ReadReg(FPS4)  returns 0x00000000 (0000ms, 67376ms total)
T3EE8 10228:803 JLINK_ReadReg(FPS5)  returns 0x00000000 (0000ms, 67377ms total)
T3EE8 10228:803 JLINK_ReadReg(FPS6)  returns 0x00000000 (0000ms, 67377ms total)
T3EE8 10228:803 JLINK_ReadReg(FPS7)  returns 0x00000000 (0000ms, 67377ms total)
T3EE8 10228:803 JLINK_ReadReg(FPS8)  returns 0x00000000 (0000ms, 67377ms total)
T3EE8 10228:803 JLINK_ReadReg(FPS9)  returns 0x00000000 (0000ms, 67377ms total)
T3EE8 10228:803 JLINK_ReadReg(FPS10)  returns 0x00000000 (0000ms, 67377ms total)
T3EE8 10228:803 JLINK_ReadReg(FPS11)  returns 0x00000000 (0000ms, 67377ms total)
T3EE8 10228:803 JLINK_ReadReg(FPS12)  returns 0x00000000 (0000ms, 67377ms total)
T3EE8 10228:803 JLINK_ReadReg(FPS13)  returns 0x00000000 (0000ms, 67377ms total)
T3EE8 10228:803 JLINK_ReadReg(FPS14)  returns 0x00000000 (0000ms, 67377ms total)
T3EE8 10228:803 JLINK_ReadReg(FPS15)  returns 0x00000000 (0000ms, 67377ms total)
T3EE8 10228:803 JLINK_ReadReg(FPS16)  returns 0x00000000 (0000ms, 67377ms total)
T3EE8 10228:804 JLINK_ReadReg(FPS17)  returns 0x00000000 (0000ms, 67377ms total)
T3EE8 10228:804 JLINK_ReadReg(FPS18)  returns 0x00000000 (0000ms, 67377ms total)
T3EE8 10228:804 JLINK_ReadReg(FPS19)  returns 0x00000000 (0000ms, 67377ms total)
T3EE8 10228:804 JLINK_ReadReg(FPS20)  returns 0x00000000 (0000ms, 67377ms total)
T3EE8 10228:804 JLINK_ReadReg(FPS21)  returns 0x00000000 (0000ms, 67377ms total)
T3EE8 10228:804 JLINK_ReadReg(FPS22)  returns 0x00000000 (0000ms, 67377ms total)
T3EE8 10228:804 JLINK_ReadReg(FPS23)  returns 0x00000000 (0000ms, 67377ms total)
T3EE8 10228:804 JLINK_ReadReg(FPS24)  returns 0x00000000 (0000ms, 67377ms total)
T3EE8 10228:804 JLINK_ReadReg(FPS25)  returns 0x00000000 (0000ms, 67377ms total)
T3EE8 10228:804 JLINK_ReadReg(FPS26)  returns 0x00000000 (0000ms, 67377ms total)
T3EE8 10228:804 JLINK_ReadReg(FPS27)  returns 0x00000000 (0000ms, 67377ms total)
T3EE8 10228:804 JLINK_ReadReg(FPS28)  returns 0x00000000 (0000ms, 67377ms total)
T3EE8 10228:805 JLINK_ReadReg(FPS29)  returns 0x00000000 (0000ms, 67378ms total)
T3EE8 10228:805 JLINK_ReadReg(FPS30)  returns 0x00000000 (0000ms, 67378ms total)
T3EE8 10228:805 JLINK_ReadReg(FPS31)  returns 0x00000000 (0000ms, 67378ms total)
T1EB4 10228:805 JLINK_ReadMemEx(0x20000EB4, 0x0004 Bytes, ..., Flags = 0x02000000) -- CPU_ReadMem(64 bytes @ 0x20000E80) -- Updating C cache (64 bytes @ 0x20000E80) -- Read from C cache (4 bytes @ 0x20000EB4) - Data: 29 18 00 08  returns 0x04 (0002ms, 67380ms total)
T1EB4 10228:807 JLINK_ReadMemEx(0x20000EA8, 0x0004 Bytes, ..., Flags = 0x02000000) -- Read from C cache (4 bytes @ 0x20000EA8) - Data: 00 00 00 00  returns 0x04 (0000ms, 67380ms total)
T1EB4 10228:807 JLINK_ReadMemEx(0x20000EAC, 0x0004 Bytes, ..., Flags = 0x02000000) -- Read from C cache (4 bytes @ 0x20000EAC) - Data: 58 08 00 20  returns 0x04 (0000ms, 67380ms total)
T1EB4 10228:807 JLINK_ReadMemEx(0x20000EB0, 0x0004 Bytes, ..., Flags = 0x02000000) -- Read from C cache (4 bytes @ 0x20000EB0) - Data: 00 00 00 00  returns 0x04 (0000ms, 67380ms total)
T1EB4 10228:807 JLINK_ReadMemEx(0x080004CC, 0x0020 Bytes, ..., Flags = 0x02000000) -- CPU_ReadMem(64 bytes @ 0x080004C0) -- Updating C cache (64 bytes @ 0x080004C0) -- Read from C cache (32 bytes @ 0x080004CC) - Data: 6D 79 20 6E 61 6D 65 20 69 73 20 74 74 00 00 00 ...  returns 0x20 (0002ms, 67382ms total)
T1EB4 10228:817 JLINK_ReadMemU32(0xE0001004, 0x0001 Items, ...) -- CPU_ReadMem(4 bytes @ 0xE0001004) - Data: 83 36 00 00  returns 1 (0001ms, 67383ms total)
T1EB4 10228:818 JLINK_ReadMemEx(0x20000000, 0x0004 Bytes, ..., Flags = 0x02000000) -- CPU_ReadMem(64 bytes @ 0x20000000) -- Updating C cache (64 bytes @ 0x20000000) -- Read from C cache (4 bytes @ 0x20000000) - Data: 00 00 00 00  returns 0x04 (0001ms, 67384ms total)
T1EB4 10228:819 JLINK_ReadMemEx(0x20000004, 0x0004 Bytes, ..., Flags = 0x02000000) -- Read from C cache (4 bytes @ 0x20000004) - Data: 1D 00 00 00  returns 0x04 (0000ms, 67384ms total)
T1EB4 10228:819 JLINK_ReadMemEx(0x08000498, 0x003C Bytes, ..., Flags = 0x02000000) -- CPU_ReadMem(64 bytes @ 0x08000480) -- Updating C cache (64 bytes @ 0x08000480) -- Read from C cache (60 bytes @ 0x08000498) - Data: 0D 22 21 46 01 20 01 F0 5F F8 0D 22 06 49 01 20 ...  returns 0x3C (0002ms, 67386ms total)
T1EB4 10231:848 JLINK_ReadMemEx(0x20000018, 0x03E8 Bytes, ..., Flags = 0x02000000) -- CPU_ReadMem(960 bytes @ 0x20000040) -- Updating C cache (960 bytes @ 0x20000040) -- Read from C cache (1000 bytes @ 0x20000018) - Data: 00 00 00 00 00 00 00 00 00 00 00 00 00 00 00 00 ...  returns 0x3E8 (0008ms, 67394ms total)
T1EB4 10231:856 JLINK_ReadMemEx(0x20000400, 0x0014 Bytes, ..., Flags = 0x02000000) -- CPU_ReadMem(64 bytes @ 0x20000400) -- Updating C cache (64 bytes @ 0x20000400) -- Read from C cache (20 bytes @ 0x20000400) - Data: 00 00 00 00 00 00 00 00 00 00 00 00 00 00 00 00 ...  returns 0x14 (0002ms, 67396ms total)
T3EE8 10232:734 JLINK_ReadMemEx(0x08000498, 0x0002 Bytes, ..., Flags = 0x02000000) -- Read from C cache (2 bytes @ 0x08000498) - Data: 0D 22  returns 0x02 (0000ms, 67396ms total)
T3EE8 10232:734 JLINK_Step() -- Read from C cache (2 bytes @ 0x08000498) -- CPU_ReadMem(4 bytes @ 0xE000ED18) -- CPU_WriteMem(4 bytes @ 0xE000ED18) -- CPU_ReadMem(4 bytes @ 0xE000ED18) -- CPU_WriteMem(4 bytes @ 0xE000ED18) -- Simulated  returns 0x00 (0003ms, 67399ms total)
T3EE8 10232:737 JLINK_ReadReg(R15 (PC))  returns 0x0800049A (0000ms, 67399ms total)
T3EE8 10232:737 JLINK_ReadReg(XPSR)  returns 0x21000000 (0000ms, 67399ms total)
T3EE8 10232:737 JLINK_ReadMemEx(0x0800049A, 0x0002 Bytes, ..., Flags = 0x02000000) -- Read from C cache (2 bytes @ 0x0800049A) - Data: 21 46  returns 0x02 (0000ms, 67399ms total)
T3EE8 10232:737 JLINK_ReadMemEx(0x0800049C, 0x003C Bytes, ..., Flags = 0x02000000) -- Read from C cache (60 bytes @ 0x0800049C) - Data: 01 20 01 F0 5F F8 0D 22 06 49 01 20 01 F0 4F F8 ...  returns 0x3C (0000ms, 67399ms total)
T3EE8 10232:737 JLINK_ReadMemEx(0x0800049C, 0x0002 Bytes, ..., Flags = 0x02000000) -- Read from C cache (2 bytes @ 0x0800049C) - Data: 01 20  returns 0x02 (0000ms, 67399ms total)
T3EE8 10232:737 JLINK_Step() -- Read from C cache (2 bytes @ 0x0800049A) -- Simulated  returns 0x00 (0000ms, 67399ms total)
T3EE8 10232:737 JLINK_ReadReg(R15 (PC))  returns 0x0800049C (0000ms, 67399ms total)
T3EE8 10232:737 JLINK_ReadReg(XPSR)  returns 0x21000000 (0000ms, 67399ms total)
T3EE8 10232:737 JLINK_ReadMemEx(0x0800049C, 0x003C Bytes, ..., Flags = 0x02000000) -- Read from C cache (60 bytes @ 0x0800049C) - Data: 01 20 01 F0 5F F8 0D 22 06 49 01 20 01 F0 4F F8 ...  returns 0x3C (0000ms, 67399ms total)
T3EE8 10232:737 JLINK_ReadMemEx(0x0800049C, 0x0002 Bytes, ..., Flags = 0x02000000) -- Read from C cache (2 bytes @ 0x0800049C) - Data: 01 20  returns 0x02 (0000ms, 67399ms total)
T3EE8 10232:737 JLINK_ReadMemEx(0x0800049E, 0x0002 Bytes, ..., Flags = 0x02000000) -- Read from C cache (2 bytes @ 0x0800049E) - Data: 01 F0  returns 0x02 (0000ms, 67399ms total)
T3EE8 10232:737 JLINK_Step() -- Read from C cache (2 bytes @ 0x0800049C) -- Simulated  returns 0x00 (0000ms, 67399ms total)
T3EE8 10232:737 JLINK_ReadReg(R15 (PC))  returns 0x0800049E (0000ms, 67399ms total)
T3EE8 10232:737 JLINK_ReadReg(XPSR)  returns 0x21000000 (0000ms, 67399ms total)
T3EE8 10232:737 JLINK_ReadMemEx(0x0800049E, 0x0002 Bytes, ..., Flags = 0x02000000) -- Read from C cache (2 bytes @ 0x0800049E) - Data: 01 F0  returns 0x02 (0000ms, 67399ms total)
T3EE8 10232:737 JLINK_ReadMemEx(0x080004A0, 0x003C Bytes, ..., Flags = 0x02000000) -- Read from C cache (60 bytes @ 0x080004A0) - Data: 5F F8 0D 22 06 49 01 20 01 F0 4F F8 70 BD 00 00 ...  returns 0x3C (0000ms, 67399ms total)
T3EE8 10232:737 JLINK_ReadMemEx(0x080004A0, 0x0002 Bytes, ..., Flags = 0x02000000) -- Read from C cache (2 bytes @ 0x080004A0) - Data: 5F F8  returns 0x02 (0000ms, 67399ms total)
T3EE8 10232:737 JLINK_Step() -- Read from C cache (2 bytes @ 0x0800049E) -- Read from C cache (2 bytes @ 0x080004A0) -- Simulated  returns 0x00 (0001ms, 67400ms total)
T3EE8 10232:738 JLINK_ReadReg(R15 (PC))  returns 0x08001560 (0000ms, 67400ms total)
T3EE8 10232:738 JLINK_ReadReg(XPSR)  returns 0x21000000 (0000ms, 67400ms total)
T3EE8 10232:738 JLINK_ReadReg(R0)  returns 0x00000001 (0000ms, 67400ms total)
T3EE8 10232:738 JLINK_ReadReg(R1)  returns 0x080004CC (0000ms, 67400ms total)
T3EE8 10232:738 JLINK_ReadReg(R2)  returns 0x0000000D (0000ms, 67400ms total)
T3EE8 10232:738 JLINK_ReadReg(R3)  returns 0x20000E88 (0000ms, 67400ms total)
T3EE8 10232:738 JLINK_ReadReg(R4)  returns 0x080004CC (0000ms, 67400ms total)
T3EE8 10232:738 JLINK_ReadReg(R5)  returns 0x0000000D (0000ms, 67400ms total)
T3EE8 10232:738 JLINK_ReadReg(R6)  returns 0x00000000 (0000ms, 67400ms total)
T3EE8 10232:738 JLINK_ReadReg(R7)  returns 0x00000000 (0000ms, 67400ms total)
T3EE8 10232:738 JLINK_ReadReg(R8)  returns 0x00000000 (0000ms, 67400ms total)
T3EE8 10232:738 JLINK_ReadReg(R9)  returns 0x00000000 (0000ms, 67400ms total)
T3EE8 10232:738 JLINK_ReadReg(R10)  returns 0x08001870 (0000ms, 67400ms total)
T3EE8 10232:738 JLINK_ReadReg(R11)  returns 0x00000000 (0000ms, 67400ms total)
T3EE8 10232:738 JLINK_ReadReg(R12)  returns 0x00000000 (0000ms, 67400ms total)
T3EE8 10232:738 JLINK_ReadReg(R13 (SP))  returns 0x20000EA8 (0000ms, 67400ms total)
T3EE8 10232:738 JLINK_ReadReg(R14)  returns 0x080004A3 (0000ms, 67400ms total)
T3EE8 10232:738 JLINK_ReadReg(R15 (PC))  returns 0x08001560 (0000ms, 67400ms total)
T3EE8 10232:738 JLINK_ReadReg(XPSR)  returns 0x21000000 (0000ms, 67400ms total)
T3EE8 10232:738 JLINK_ReadReg(MSP)  returns 0x20000EA8 (0000ms, 67400ms total)
T3EE8 10232:738 JLINK_ReadReg(PSP)  returns 0x00000000 (0000ms, 67400ms total)
T3EE8 10232:738 JLINK_ReadReg(CFBP)  returns 0x04000000 (0000ms, 67400ms total)
T3EE8 10232:738 JLINK_ReadReg(FPSCR)  returns 0x03000000 (0000ms, 67400ms total)
T3EE8 10232:738 JLINK_ReadReg(FPS0)  returns 0x00000000 (0000ms, 67400ms total)
T3EE8 10232:738 JLINK_ReadReg(FPS1)  returns 0x00000000 (0000ms, 67400ms total)
T3EE8 10232:738 JLINK_ReadReg(FPS2)  returns 0x00000000 (0000ms, 67400ms total)
T3EE8 10232:738 JLINK_ReadReg(FPS3)  returns 0x00000000 (0000ms, 67400ms total)
T3EE8 10232:738 JLINK_ReadReg(FPS4)  returns 0x00000000 (0000ms, 67400ms total)
T3EE8 10232:738 JLINK_ReadReg(FPS5)  returns 0x00000000 (0000ms, 67400ms total)
T3EE8 10232:738 JLINK_ReadReg(FPS6)  returns 0x00000000 (0000ms, 67400ms total)
T3EE8 10232:738 JLINK_ReadReg(FPS7)  returns 0x00000000 (0000ms, 67400ms total)
T3EE8 10232:738 JLINK_ReadReg(FPS8)  returns 0x00000000 (0000ms, 67400ms total)
T3EE8 10232:738 JLINK_ReadReg(FPS9)  returns 0x00000000 (0000ms, 67400ms total)
T3EE8 10232:738 JLINK_ReadReg(FPS10)  returns 0x00000000 (0000ms, 67400ms total)
T3EE8 10232:738 JLINK_ReadReg(FPS11)  returns 0x00000000 (0000ms, 67400ms total)
T3EE8 10232:738 JLINK_ReadReg(FPS12)  returns 0x00000000 (0000ms, 67400ms total)
T3EE8 10232:738 JLINK_ReadReg(FPS13)  returns 0x00000000 (0000ms, 67400ms total)
T3EE8 10232:738 JLINK_ReadReg(FPS14)  returns 0x00000000 (0000ms, 67400ms total)
T3EE8 10232:738 JLINK_ReadReg(FPS15)  returns 0x00000000 (0000ms, 67400ms total)
T3EE8 10232:738 JLINK_ReadReg(FPS16)  returns 0x00000000 (0000ms, 67400ms total)
T3EE8 10232:738 JLINK_ReadReg(FPS17)  returns 0x00000000 (0000ms, 67400ms total)
T3EE8 10232:738 JLINK_ReadReg(FPS18)  returns 0x00000000 (0000ms, 67400ms total)
T3EE8 10232:738 JLINK_ReadReg(FPS19)  returns 0x00000000 (0000ms, 67400ms total)
T3EE8 10232:738 JLINK_ReadReg(FPS20)  returns 0x00000000 (0000ms, 67400ms total)
T3EE8 10232:738 JLINK_ReadReg(FPS21)  returns 0x00000000 (0001ms, 67401ms total)
T3EE8 10232:739 JLINK_ReadReg(FPS22)  returns 0x00000000 (0000ms, 67401ms total)
T3EE8 10232:739 JLINK_ReadReg(FPS23)  returns 0x00000000 (0000ms, 67401ms total)
T3EE8 10232:739 JLINK_ReadReg(FPS24)  returns 0x00000000 (0000ms, 67401ms total)
T3EE8 10232:739 JLINK_ReadReg(FPS25)  returns 0x00000000 (0000ms, 67401ms total)
T3EE8 10232:739 JLINK_ReadReg(FPS26)  returns 0x00000000 (0000ms, 67401ms total)
T3EE8 10232:739 JLINK_ReadReg(FPS27)  returns 0x00000000 (0000ms, 67401ms total)
T3EE8 10232:739 JLINK_ReadReg(FPS28)  returns 0x00000000 (0000ms, 67401ms total)
T3EE8 10232:739 JLINK_ReadReg(FPS29)  returns 0x00000000 (0000ms, 67401ms total)
T3EE8 10232:739 JLINK_ReadReg(FPS30)  returns 0x00000000 (0000ms, 67401ms total)
T3EE8 10232:739 JLINK_ReadReg(FPS31)  returns 0x00000000 (0000ms, 67401ms total)
T1EB4 10232:739 JLINK_ReadMemEx(0x20000EB4, 0x0004 Bytes, ..., Flags = 0x02000000) -- Read from C cache (4 bytes @ 0x20000EB4) - Data: 29 18 00 08  returns 0x04 (0000ms, 67401ms total)
T1EB4 10232:739 JLINK_ReadMemEx(0x20000EA8, 0x0004 Bytes, ..., Flags = 0x02000000) -- Read from C cache (4 bytes @ 0x20000EA8) - Data: 00 00 00 00  returns 0x04 (0000ms, 67401ms total)
T1EB4 10232:739 JLINK_ReadMemEx(0x20000EAC, 0x0004 Bytes, ..., Flags = 0x02000000) -- Read from C cache (4 bytes @ 0x20000EAC) - Data: 58 08 00 20  returns 0x04 (0000ms, 67401ms total)
T1EB4 10232:739 JLINK_ReadMemEx(0x20000EB0, 0x0004 Bytes, ..., Flags = 0x02000000) -- Read from C cache (4 bytes @ 0x20000EB0) - Data: 00 00 00 00  returns 0x04 (0000ms, 67401ms total)
T1EB4 10232:740 JLINK_ReadMemEx(0x080004CC, 0x0020 Bytes, ..., Flags = 0x02000000) -- Read from C cache (32 bytes @ 0x080004CC) - Data: 6D 79 20 6E 61 6D 65 20 69 73 20 74 74 00 00 00 ...  returns 0x20 (0000ms, 67401ms total)
T1EB4 10232:740 JLINK_ReadMemU32(0xE0001004, 0x0001 Items, ...) - Data: 87 36 00 00  returns 1 (0000ms, 67401ms total)
T1EB4 10232:740 JLINK_ReadMemEx(0x20000000, 0x0004 Bytes, ..., Flags = 0x02000000) -- Read from C cache (4 bytes @ 0x20000000) - Data: 00 00 00 00  returns 0x04 (0000ms, 67401ms total)
T1EB4 10232:740 JLINK_ReadMemEx(0x20000004, 0x0004 Bytes, ..., Flags = 0x02000000) -- Read from C cache (4 bytes @ 0x20000004) - Data: 1D 00 00 00  returns 0x04 (0000ms, 67401ms total)
T1EB4 10232:740 JLINK_ReadMemEx(0x20000018, 0x03E8 Bytes, ..., Flags = 0x02000000) -- Read from C cache (1000 bytes @ 0x20000018) - Data: 00 00 00 00 00 00 00 00 00 00 00 00 00 00 00 00 ...  returns 0x3E8 (0000ms, 67401ms total)
T1EB4 10232:740 JLINK_ReadMemEx(0x20000400, 0x0014 Bytes, ..., Flags = 0x02000000) -- Read from C cache (20 bytes @ 0x20000400) - Data: 00 00 00 00 00 00 00 00 00 00 00 00 00 00 00 00 ...  returns 0x14 (0000ms, 67401ms total)
T1EB4 10232:742 JLINK_ReadMemEx(0x08001560, 0x003C Bytes, ..., Flags = 0x02000000) -- CPU_ReadMem(128 bytes @ 0x08001540) -- Updating C cache (128 bytes @ 0x08001540) -- Read from C cache (60 bytes @ 0x08001560) - Data: 70 B5 04 46 0D 46 16 46 32 46 29 46 20 46 00 F0 ...  returns 0x3C (0001ms, 67402ms total)
T3EE8 10233:343 JLINK_ReadMemEx(0x08001560, 0x0002 Bytes, ..., Flags = 0x02000000) -- Read from C cache (2 bytes @ 0x08001560) - Data: 70 B5  returns 0x02 (0000ms, 67402ms total)
T3EE8 10233:343 JLINK_Step() -- Read from C cache (2 bytes @ 0x08001560) -- CPU_WriteMem(16 bytes @ 0x20000E98) -- Simulated  returns 0x00 (0003ms, 67405ms total)
T3EE8 10233:346 JLINK_ReadReg(R15 (PC))  returns 0x08001562 (0000ms, 67405ms total)
T3EE8 10233:346 JLINK_ReadReg(XPSR)  returns 0x21000000 (0000ms, 67405ms total)
T3EE8 10233:346 JLINK_Step() -- Read from C cache (2 bytes @ 0x08001562) -- Simulated  returns 0x00 (0000ms, 67405ms total)
T3EE8 10233:346 JLINK_ReadReg(R15 (PC))  returns 0x08001564 (0000ms, 67405ms total)
T3EE8 10233:346 JLINK_ReadReg(XPSR)  returns 0x21000000 (0000ms, 67405ms total)
T3EE8 10233:346 JLINK_Step() -- Read from C cache (2 bytes @ 0x08001564) -- Simulated  returns 0x00 (0001ms, 67406ms total)
T3EE8 10233:347 JLINK_ReadReg(R15 (PC))  returns 0x08001566 (0000ms, 67406ms total)
T3EE8 10233:347 JLINK_ReadReg(XPSR)  returns 0x21000000 (0000ms, 67406ms total)
T3EE8 10233:347 JLINK_Step() -- Read from C cache (2 bytes @ 0x08001566) -- Simulated  returns 0x00 (0000ms, 67406ms total)
T3EE8 10233:347 JLINK_ReadReg(R15 (PC))  returns 0x08001568 (0000ms, 67406ms total)
T3EE8 10233:347 JLINK_ReadReg(XPSR)  returns 0x21000000 (0000ms, 67406ms total)
T3EE8 10233:347 JLINK_ReadReg(R0)  returns 0x00000001 (0000ms, 67406ms total)
T3EE8 10233:347 JLINK_ReadReg(R1)  returns 0x080004CC (0000ms, 67406ms total)
T3EE8 10233:347 JLINK_ReadReg(R2)  returns 0x0000000D (0000ms, 67406ms total)
T3EE8 10233:347 JLINK_ReadReg(R3)  returns 0x20000E88 (0001ms, 67407ms total)
T3EE8 10233:348 JLINK_ReadReg(R4)  returns 0x00000001 (0000ms, 67407ms total)
T3EE8 10233:348 JLINK_ReadReg(R5)  returns 0x080004CC (0000ms, 67407ms total)
T3EE8 10233:348 JLINK_ReadReg(R6)  returns 0x0000000D (0000ms, 67407ms total)
T3EE8 10233:348 JLINK_ReadReg(R7)  returns 0x00000000 (0000ms, 67407ms total)
T3EE8 10233:348 JLINK_ReadReg(R8)  returns 0x00000000 (0000ms, 67407ms total)
T3EE8 10233:348 JLINK_ReadReg(R9)  returns 0x00000000 (0000ms, 67407ms total)
T3EE8 10233:348 JLINK_ReadReg(R10)  returns 0x08001870 (0000ms, 67407ms total)
T3EE8 10233:348 JLINK_ReadReg(R11)  returns 0x00000000 (0000ms, 67407ms total)
T3EE8 10233:348 JLINK_ReadReg(R12)  returns 0x00000000 (0000ms, 67407ms total)
T3EE8 10233:348 JLINK_ReadReg(R13 (SP))  returns 0x20000E98 (0000ms, 67407ms total)
T3EE8 10233:348 JLINK_ReadReg(R14)  returns 0x080004A3 (0000ms, 67407ms total)
T3EE8 10233:349 JLINK_ReadReg(R15 (PC))  returns 0x08001568 (0000ms, 67408ms total)
T3EE8 10233:349 JLINK_ReadReg(XPSR)  returns 0x21000000 (0000ms, 67408ms total)
T3EE8 10233:349 JLINK_ReadReg(MSP)  returns 0x20000E98 (0000ms, 67408ms total)
T3EE8 10233:349 JLINK_ReadReg(PSP)  returns 0x00000000 (0000ms, 67408ms total)
T3EE8 10233:349 JLINK_ReadReg(CFBP)  returns 0x04000000 (0000ms, 67408ms total)
T3EE8 10233:349 JLINK_ReadReg(FPSCR)  returns 0x03000000 (0000ms, 67408ms total)
T3EE8 10233:349 JLINK_ReadReg(FPS0)  returns 0x00000000 (0000ms, 67408ms total)
T3EE8 10233:349 JLINK_ReadReg(FPS1)  returns 0x00000000 (0000ms, 67408ms total)
T3EE8 10233:349 JLINK_ReadReg(FPS2)  returns 0x00000000 (0000ms, 67408ms total)
T3EE8 10233:349 JLINK_ReadReg(FPS3)  returns 0x00000000 (0000ms, 67408ms total)
T3EE8 10233:349 JLINK_ReadReg(FPS4)  returns 0x00000000 (0000ms, 67408ms total)
T3EE8 10233:349 JLINK_ReadReg(FPS5)  returns 0x00000000 (0001ms, 67409ms total)
T3EE8 10233:350 JLINK_ReadReg(FPS6)  returns 0x00000000 (0000ms, 67409ms total)
T3EE8 10233:350 JLINK_ReadReg(FPS7)  returns 0x00000000 (0000ms, 67409ms total)
T3EE8 10233:350 JLINK_ReadReg(FPS8)  returns 0x00000000 (0000ms, 67409ms total)
T3EE8 10233:350 JLINK_ReadReg(FPS9)  returns 0x00000000 (0000ms, 67409ms total)
T3EE8 10233:350 JLINK_ReadReg(FPS10)  returns 0x00000000 (0000ms, 67409ms total)
T3EE8 10233:350 JLINK_ReadReg(FPS11)  returns 0x00000000 (0000ms, 67409ms total)
T3EE8 10233:350 JLINK_ReadReg(FPS12)  returns 0x00000000 (0000ms, 67409ms total)
T3EE8 10233:350 JLINK_ReadReg(FPS13)  returns 0x00000000 (0000ms, 67409ms total)
T3EE8 10233:350 JLINK_ReadReg(FPS14)  returns 0x00000000 (0000ms, 67409ms total)
T3EE8 10233:350 JLINK_ReadReg(FPS15)  returns 0x00000000 (0000ms, 67409ms total)
T3EE8 10233:350 JLINK_ReadReg(FPS16)  returns 0x00000000 (0000ms, 67409ms total)
T3EE8 10233:350 JLINK_ReadReg(FPS17)  returns 0x00000000 (0001ms, 67410ms total)
T3EE8 10233:351 JLINK_ReadReg(FPS18)  returns 0x00000000 (0000ms, 67410ms total)
T3EE8 10233:351 JLINK_ReadReg(FPS19)  returns 0x00000000 (0000ms, 67410ms total)
T3EE8 10233:351 JLINK_ReadReg(FPS20)  returns 0x00000000 (0000ms, 67410ms total)
T3EE8 10233:351 JLINK_ReadReg(FPS21)  returns 0x00000000 (0000ms, 67410ms total)
T3EE8 10233:351 JLINK_ReadReg(FPS22)  returns 0x00000000 (0000ms, 67410ms total)
T3EE8 10233:351 JLINK_ReadReg(FPS23)  returns 0x00000000 (0000ms, 67410ms total)
T3EE8 10233:351 JLINK_ReadReg(FPS24)  returns 0x00000000 (0000ms, 67410ms total)
T3EE8 10233:351 JLINK_ReadReg(FPS25)  returns 0x00000000 (0000ms, 67410ms total)
T3EE8 10233:351 JLINK_ReadReg(FPS26)  returns 0x00000000 (0000ms, 67410ms total)
T3EE8 10233:351 JLINK_ReadReg(FPS27)  returns 0x00000000 (0000ms, 67410ms total)
T3EE8 10233:351 JLINK_ReadReg(FPS28)  returns 0x00000000 (0001ms, 67411ms total)
T3EE8 10233:352 JLINK_ReadReg(FPS29)  returns 0x00000000 (0000ms, 67411ms total)
T3EE8 10233:352 JLINK_ReadReg(FPS30)  returns 0x00000000 (0000ms, 67411ms total)
T3EE8 10233:352 JLINK_ReadReg(FPS31)  returns 0x00000000 (0000ms, 67411ms total)
T1EB4 10233:352 JLINK_ReadMemEx(0x20000EA4, 0x0004 Bytes, ..., Flags = 0x02000000) -- CPU_ReadMem(64 bytes @ 0x20000E80) -- Updating C cache (64 bytes @ 0x20000E80) -- Read from C cache (4 bytes @ 0x20000EA4) - Data: A3 04 00 08  returns 0x04 (0002ms, 67413ms total)
T1EB4 10233:354 JLINK_ReadMemEx(0x20000E98, 0x0004 Bytes, ..., Flags = 0x02000000) -- Read from C cache (4 bytes @ 0x20000E98) - Data: CC 04 00 08  returns 0x04 (0000ms, 67413ms total)
T1EB4 10233:354 JLINK_ReadMemEx(0x20000E9C, 0x0004 Bytes, ..., Flags = 0x02000000) -- Read from C cache (4 bytes @ 0x20000E9C) - Data: 0D 00 00 00  returns 0x04 (0000ms, 67413ms total)
T1EB4 10233:354 JLINK_ReadMemEx(0x20000EA0, 0x0004 Bytes, ..., Flags = 0x02000000) -- Read from C cache (4 bytes @ 0x20000EA0) - Data: 00 00 00 00  returns 0x04 (0000ms, 67413ms total)
T1EB4 10233:354 JLINK_ReadMemEx(0x20000EB4, 0x0004 Bytes, ..., Flags = 0x02000000) -- Read from C cache (4 bytes @ 0x20000EB4) - Data: 29 18 00 08  returns 0x04 (0000ms, 67413ms total)
T1EB4 10233:354 JLINK_ReadMemEx(0x20000EA8, 0x0004 Bytes, ..., Flags = 0x02000000) -- Read from C cache (4 bytes @ 0x20000EA8) - Data: 00 00 00 00  returns 0x04 (0000ms, 67413ms total)
T1EB4 10233:355 JLINK_ReadMemEx(0x20000EAC, 0x0004 Bytes, ..., Flags = 0x02000000) -- Read from C cache (4 bytes @ 0x20000EAC) - Data: 58 08 00 20  returns 0x04 (0000ms, 67413ms total)
T1EB4 10233:355 JLINK_ReadMemEx(0x20000EB0, 0x0004 Bytes, ..., Flags = 0x02000000) -- Read from C cache (4 bytes @ 0x20000EB0) - Data: 00 00 00 00  returns 0x04 (0000ms, 67413ms total)
T1EB4 10233:355 JLINK_ReadMemEx(0x080004CC, 0x0020 Bytes, ..., Flags = 0x02000000) -- Read from C cache (32 bytes @ 0x080004CC) - Data: 6D 79 20 6E 61 6D 65 20 69 73 20 74 74 00 00 00 ...  returns 0x20 (0000ms, 67413ms total)
T1EB4 10233:355 JLINK_ReadMemU32(0xE0001004, 0x0001 Items, ...) - Data: 8F 36 00 00  returns 1 (0000ms, 67413ms total)
T1EB4 10233:357 JLINK_ReadMemEx(0x20000000, 0x0004 Bytes, ..., Flags = 0x02000000) -- Read from C cache (4 bytes @ 0x20000000) - Data: 00 00 00 00  returns 0x04 (0000ms, 67413ms total)
T1EB4 10233:357 JLINK_ReadMemEx(0x20000004, 0x0004 Bytes, ..., Flags = 0x02000000) -- Read from C cache (4 bytes @ 0x20000004) - Data: 1D 00 00 00  returns 0x04 (0001ms, 67414ms total)
T1EB4 10233:359 JLINK_ReadMemEx(0x20000018, 0x03E8 Bytes, ..., Flags = 0x02000000) -- Read from C cache (1000 bytes @ 0x20000018) - Data: 00 00 00 00 00 00 00 00 00 00 00 00 00 00 00 00 ...  returns 0x3E8 (0000ms, 67414ms total)
T1EB4 10233:359 JLINK_ReadMemEx(0x20000400, 0x0014 Bytes, ..., Flags = 0x02000000) -- Read from C cache (20 bytes @ 0x20000400) - Data: 00 00 00 00 00 00 00 00 00 00 00 00 00 00 00 00 ...  returns 0x14 (0000ms, 67414ms total)
T1EB4 10233:365 JLINK_ReadMemEx(0x08001568, 0x003C Bytes, ..., Flags = 0x02000000) -- Read from C cache (60 bytes @ 0x08001568) - Data: 32 46 29 46 20 46 00 F0 E1 F8 00 20 70 BD 70 47 ...  returns 0x3C (0000ms, 67414ms total)
T1EB4 10247:989 JLINK_SetResetType(JLINKARM_CM3_RESET_TYPE_NORMAL)  returns JLINKARM_CM3_RESET_TYPE_NORMAL (0000ms, 67414ms total)
T1EB4 10247:989 JLINK_Reset() -- CPU_WriteMem(4 bytes @ 0xE000EDF0) -- CPU_WriteMem(4 bytes @ 0xE000EDFC)Reset: Halt core after reset via DEMCR.VC_CORERESET.Reset: Reset device via AIRCR.SYSRESETREQ. -- CPU_WriteMem(4 bytes @ 0xE000ED0C) -- CPU_ReadMem(4 bytes @ 0xE000EDF0) -- CPU_ReadMem(4 bytes @ 0xE000EDF0) -- CPU_WriteMem(4 bytes @ 0xE000EDF0) -- CPU_WriteMem(4 bytes @ 0xE000EDFC) -- CPU_ReadMem(4 bytes @ 0xE000EDF0) -- CPU_WriteMem(4 bytes @ 0xE0002000) -- CPU_ReadMem(4 bytes @ 0xE000EDFC)
 -- CPU_ReadMem(4 bytes @ 0xE0001000) (0071ms, 67485ms total)
T1EB4 10248:060 JLINK_ReadReg(R15 (PC))  returns 0x08000228 (0000ms, 67485ms total)
T1EB4 10248:060 JLINK_ReadReg(XPSR)  returns 0x01000000 (0000ms, 67485ms total)
T1EB4 10248:060 JLINK_ReadReg(R0)  returns 0x00000000 (0000ms, 67485ms total)
T1EB4 10248:060 JLINK_ReadReg(R1)  returns 0x00000000 (0000ms, 67485ms total)
T1EB4 10248:060 JLINK_ReadReg(R2)  returns 0x00000000 (0000ms, 67485ms total)
T1EB4 10248:060 JLINK_ReadReg(R3)  returns 0x00000000 (0000ms, 67485ms total)
